-- west flash: rebuilding
ninja: no work to do.
-- west flash: using runner openocd
Flashing file: build/zephyr/zephyr.hex
Open On-Chip Debugger 0.12.0-01050-g91bd278a5 (2026-03-25-02:24)
Licensed under GNU GPL v2
For bug reports, read
	http://openocd.org/doc/doxygen/bugs.html
Info : The selected transport took over low-level target control. The results might differ compared to plain JTAG/SWD
User : 4 8 options.c:52 configuration_output_handler(): debug_level: 3
User : 5 8 options.c:52 configuration_output_handler(): 
Debug: 6 8 command.c:155 script_debug(): command - init
Debug: 7 8 command.c:155 script_debug(): command - target init
Debug: 8 8 command.c:155 script_debug(): command - target names
Debug: 9 8 command.c:155 script_debug(): command - stm32f4x.cpu cget -event gdb-flash-erase-start
Debug: 10 8 command.c:155 script_debug(): command - stm32f4x.cpu configure -event gdb-flash-erase-start reset init
Debug: 11 8 command.c:155 script_debug(): command - stm32f4x.cpu cget -event gdb-flash-write-end
Debug: 12 8 command.c:155 script_debug(): command - stm32f4x.cpu configure -event gdb-flash-write-end reset halt
Debug: 13 8 command.c:155 script_debug(): command - stm32f4x.cpu cget -event gdb-attach
Debug: 14 8 target.c:1657 handle_target_init_command(): Initializing targets...
Debug: 15 9 hla_target.c:183 adapter_init_target(): adapter_init_target
Debug: 16 9 semihosting_common.c:109 semihosting_common_init():  
Debug: 17 9 hla_interface.c:111 hl_interface_init(): hl_interface_init
Debug: 18 9 hla_layout.c:84 hl_layout_init(): hl_layout_init
Debug: 19 9 adapter.c:215 adapter_khz_to_speed(): convert khz to adapter specific speed value
Debug: 20 9 adapter.c:219 adapter_khz_to_speed(): have adapter set up
Debug: 21 9 adapter.c:215 adapter_khz_to_speed(): convert khz to adapter specific speed value
Debug: 22 9 adapter.c:219 adapter_khz_to_speed(): have adapter set up
Info : 23 9 adapter.c:179 adapter_init(): clock speed 2000 kHz
Debug: 24 9 openocd.c:134 handle_init_command(): Debug Adapter init complete
Debug: 25 9 command.c:155 script_debug(): command - transport init
Debug: 26 9 transport.c:219 handle_transport_init(): handle_transport_init
Debug: 27 9 hla_transport.c:143 hl_transport_init(): hl_transport_init
Debug: 28 9 hla_transport.c:160 hl_transport_init(): current transport hla_swd
Debug: 29 9 hla_interface.c:44 hl_interface_open(): hl_interface_open
Debug: 30 9 hla_layout.c:29 hl_layout_open(): hl_layout_open
Debug: 31 9 stlink_usb.c:3693 stlink_open(): stlink_open
Debug: 32 9 stlink_usb.c:3705 stlink_open(): transport: 4 vid: 0x0483 pid: 0x3744 serial: 
Debug: 33 9 stlink_usb.c:3705 stlink_open(): transport: 4 vid: 0x0483 pid: 0x3748 serial: 
Debug: 34 9 stlink_usb.c:3705 stlink_open(): transport: 4 vid: 0x0483 pid: 0x374b serial: 
Debug: 35 9 stlink_usb.c:3705 stlink_open(): transport: 4 vid: 0x0483 pid: 0x374d serial: 
Debug: 36 9 stlink_usb.c:3705 stlink_open(): transport: 4 vid: 0x0483 pid: 0x374e serial: 
Debug: 37 9 stlink_usb.c:3705 stlink_open(): transport: 4 vid: 0x0483 pid: 0x374f serial: 
Debug: 38 9 stlink_usb.c:3705 stlink_open(): transport: 4 vid: 0x0483 pid: 0x3752 serial: 
Debug: 39 9 stlink_usb.c:3705 stlink_open(): transport: 4 vid: 0x0483 pid: 0x3753 serial: 
Debug: 40 9 stlink_usb.c:3705 stlink_open(): transport: 4 vid: 0x0483 pid: 0x3754 serial: 
Info : 41 10 stlink_usb.c:1434 stlink_usb_version(): STLINK V2J33M25 (API v2) VID:PID 0483:374B
Debug: 42 11 stlink_usb.c:1659 stlink_usb_exit_mode(): MODE: 0x01
Info : 43 12 stlink_usb.c:1470 stlink_usb_check_voltage(): Target voltage: 3.249836
Debug: 44 12 stlink_usb.c:1727 stlink_usb_init_mode(): MODE: 0x01
Debug: 45 12 stlink_usb.c:3093 stlink_dump_speed_map(): Supported clock speeds are:
Debug: 46 12 stlink_usb.c:3096 stlink_dump_speed_map(): 4000 kHz
Debug: 47 12 stlink_usb.c:3096 stlink_dump_speed_map(): 1800 kHz
Debug: 48 12 stlink_usb.c:3096 stlink_dump_speed_map(): 1200 kHz
Debug: 49 12 stlink_usb.c:3096 stlink_dump_speed_map(): 950 kHz
Debug: 50 12 stlink_usb.c:3096 stlink_dump_speed_map(): 480 kHz
Debug: 51 12 stlink_usb.c:3096 stlink_dump_speed_map(): 240 kHz
Debug: 52 12 stlink_usb.c:3096 stlink_dump_speed_map(): 125 kHz
Debug: 53 12 stlink_usb.c:3096 stlink_dump_speed_map(): 100 kHz
Debug: 54 12 stlink_usb.c:3096 stlink_dump_speed_map(): 50 kHz
Debug: 55 12 stlink_usb.c:3096 stlink_dump_speed_map(): 25 kHz
Debug: 56 12 stlink_usb.c:3096 stlink_dump_speed_map(): 15 kHz
Debug: 57 12 stlink_usb.c:3096 stlink_dump_speed_map(): 5 kHz
Debug: 58 14 stlink_usb.c:1083 stlink_usb_error_check(): wait status SWD_DP_WAIT (0x14)
Debug: 59 14 stlink_usb.c:1181 stlink_cmd_allow_retry(): stlink_cmd_allow_retry ERROR_WAIT, retry 1, delaying 1000 microseconds
Debug: 60 20 stlink_usb.c:1787 stlink_usb_init_mode(): MODE: 0x02
Debug: 61 21 stlink_usb.c:4088 stlink_usb_open_ap(): AP 0 enabled
Debug: 62 23 stlink_usb.c:1083 stlink_usb_error_check(): wait status SWD_DP_WAIT (0x14)
Debug: 63 23 stlink_usb.c:3781 stlink_open(): Using TAR autoincrement: 1024
Debug: 64 24 core.c:640 adapter_system_reset(): SRST line released
Debug: 65 130 hla_interface.c:69 hl_interface_init_target(): hl_interface_init_target
Debug: 66 132 stlink_usb.c:2020 stlink_usb_idcode(): IDCODE: 0x2BA01477
Debug: 67 132 command.c:155 script_debug(): command - dap init
Debug: 68 132 arm_dap.c:97 dap_init_all(): Initializing all DAPs ...
Debug: 69 132 openocd.c:151 handle_init_command(): Examining targets...
Debug: 70 132 target.c:1843 target_call_event_callbacks(): target event 19 (examine-start) for core stm32f4x.cpu
Debug: 71 132 hla_target.c:601 adapter_read_memory(): adapter_read_memory 0xe000ed00 4 1
Debug: 72 136 stlink_usb.c:1083 stlink_usb_error_check(): wait status SWD_DP_WAIT (0x14)
Debug: 73 140 stlink_usb.c:1083 stlink_usb_error_check(): wait status SWD_DP_WAIT (0x14)
Debug: 74 145 stlink_usb.c:1083 stlink_usb_error_check(): wait status SWD_DP_WAIT (0x14)
Debug: 75 153 stlink_usb.c:1083 stlink_usb_error_check(): wait status SWD_DP_WAIT (0x14)
Debug: 76 164 stlink_usb.c:1083 stlink_usb_error_check(): wait status SWD_DP_WAIT (0x14)
Debug: 77 184 stlink_usb.c:1083 stlink_usb_error_check(): wait status SWD_DP_WAIT (0x14)
Debug: 78 221 stlink_usb.c:1083 stlink_usb_error_check(): wait status SWD_DP_WAIT (0x14)
Debug: 79 293 stlink_usb.c:1083 stlink_usb_error_check(): wait status SWD_DP_WAIT (0x14)
Debug: 80 432 stlink_usb.c:1083 stlink_usb_error_check(): wait status SWD_DP_WAIT (0x14)
Debug: 81 432 target.c:2633 target_read_u32(): address: 0xe000ed00 failed
Debug: 82 432 target.c:1843 target_call_event_callbacks(): target event 20 (examine-fail) for core stm32f4x.cpu
Warn : 83 432 target.c:793 target_examine(): target stm32f4x.cpu examination failed
Debug: 84 432 openocd.c:153 handle_init_command(): target examination failed
Debug: 85 432 command.c:155 script_debug(): command - flash init
Debug: 86 432 tcl.c:1375 handle_flash_init_command(): Initializing flash devices...
Debug: 87 432 command.c:155 script_debug(): command - nand init
Debug: 88 432 tcl.c:487 handle_nand_init_command(): Initializing NAND devices...
Debug: 89 432 command.c:155 script_debug(): command - pld init
Debug: 90 432 pld.c:194 handle_pld_init_command(): Initializing PLDs...
Debug: 91 432 command.c:155 script_debug(): command - tpiu init
Info : 92 436 gdb_server.c:3791 gdb_target_start(): starting gdb server for stm32f4x.cpu on 3333
Info : 93 436 server.c:297 add_service(): Listening on port 3333 for gdb connections
Debug: 94 436 command.c:155 script_debug(): command - targets
Debug: 95 439 stlink_usb.c:1083 stlink_usb_error_check(): wait status SWD_DP_WAIT (0x14)
Debug: 96 439 stlink_usb.c:1181 stlink_cmd_allow_retry(): stlink_cmd_allow_retry ERROR_WAIT, retry 1, delaying 1000 microseconds
Debug: 97 442 stlink_usb.c:1083 stlink_usb_error_check(): wait status SWD_DP_WAIT (0x14)
Debug: 98 442 stlink_usb.c:1181 stlink_cmd_allow_retry(): stlink_cmd_allow_retry ERROR_WAIT, retry 2, delaying 2000 microseconds
Debug: 99 445 stlink_usb.c:1083 stlink_usb_error_check(): wait status SWD_DP_WAIT (0x14)
Debug: 100 445 stlink_usb.c:1181 stlink_cmd_allow_retry(): stlink_cmd_allow_retry ERROR_WAIT, retry 3, delaying 4000 microseconds
Debug: 101 451 stlink_usb.c:1083 stlink_usb_error_check(): wait status SWD_DP_WAIT (0x14)
Debug: 102 451 stlink_usb.c:1181 stlink_cmd_allow_retry(): stlink_cmd_allow_retry ERROR_WAIT, retry 4, delaying 8000 microseconds
Debug: 103 461 stlink_usb.c:1083 stlink_usb_error_check(): wait status SWD_DP_WAIT (0x14)
Debug: 104 461 stlink_usb.c:1181 stlink_cmd_allow_retry(): stlink_cmd_allow_retry ERROR_WAIT, retry 5, delaying 16000 microseconds
Debug: 105 480 stlink_usb.c:1083 stlink_usb_error_check(): wait status SWD_DP_WAIT (0x14)
Debug: 106 480 stlink_usb.c:1181 stlink_cmd_allow_retry(): stlink_cmd_allow_retry ERROR_WAIT, retry 6, delaying 32000 microseconds
Debug: 107 517 stlink_usb.c:1083 stlink_usb_error_check(): wait status SWD_DP_WAIT (0x14)
Debug: 108 517 stlink_usb.c:1181 stlink_cmd_allow_retry(): stlink_cmd_allow_retry ERROR_WAIT, retry 7, delaying 64000 microseconds
Debug: 109 588 stlink_usb.c:1083 stlink_usb_error_check(): wait status SWD_DP_WAIT (0x14)
Debug: 110 588 stlink_usb.c:1181 stlink_cmd_allow_retry(): stlink_cmd_allow_retry ERROR_WAIT, retry 8, delaying 128000 microseconds
Debug: 111 726 stlink_usb.c:1083 stlink_usb_error_check(): wait status SWD_DP_WAIT (0x14)
Error: 112 726 hla_target.c:296 adapter_poll(): jtag status contains invalid mode value - communication failure
Debug: 113 726 target.c:1843 target_call_event_callbacks(): target event 0 (gdb-halt) for core stm32f4x.cpu
User : 114 726 target.c:3067 handle_target(): Polling target stm32f4x.cpu failed, trying to reexamine
Debug: 115 726 target.c:1843 target_call_event_callbacks(): target event 19 (examine-start) for core stm32f4x.cpu
Debug: 116 726 hla_target.c:601 adapter_read_memory(): adapter_read_memory 0xe000ed00 4 1
Debug: 117 730 stlink_usb.c:1083 stlink_usb_error_check(): wait status SWD_DP_WAIT (0x14)
Debug: 118 734 stlink_usb.c:1083 stlink_usb_error_check(): wait status SWD_DP_WAIT (0x14)
Debug: 119 738 stlink_usb.c:1083 stlink_usb_error_check(): wait status SWD_DP_WAIT (0x14)
Debug: 120 745 stlink_usb.c:1083 stlink_usb_error_check(): wait status SWD_DP_WAIT (0x14)
Debug: 121 756 stlink_usb.c:1083 stlink_usb_error_check(): wait status SWD_DP_WAIT (0x14)
Debug: 122 775 stlink_usb.c:1083 stlink_usb_error_check(): wait status SWD_DP_WAIT (0x14)
Debug: 123 812 stlink_usb.c:1083 stlink_usb_error_check(): wait status SWD_DP_WAIT (0x14)
Debug: 124 885 stlink_usb.c:1083 stlink_usb_error_check(): wait status SWD_DP_WAIT (0x14)
Debug: 125 1022 stlink_usb.c:1083 stlink_usb_error_check(): wait status SWD_DP_WAIT (0x14)
Debug: 126 1022 target.c:2633 target_read_u32(): address: 0xe000ed00 failed
Debug: 127 1022 target.c:1843 target_call_event_callbacks(): target event 20 (examine-fail) for core stm32f4x.cpu
User : 128 1022 target.c:3074 handle_target(): Examination failed, GDB will be halted. Polling again in 100ms
User : 129 1022 options.c:52 configuration_output_handler():     TargetName         Type       Endian TapName            State       
--  ------------------ ---------- ------ ------------------ ------------
 0* stm32f4x.cpu       hla_target little stm32f4x.cpu       unknown
User : 130 1022 options.c:52 configuration_output_handler(): 
Debug: 131 1022 command.c:155 script_debug(): command - reset init
Debug: 132 1022 log.c:412 gdb_timeout_warning(): keep_alive() was not invoked in the 1000 ms timelimit (1022 ms). This may cause trouble with GDB connections.
Debug: 133 1022 target.c:1862 target_call_reset_callbacks(): target reset 3 (init)
Debug: 134 1022 command.c:155 script_debug(): command - expr [catch {ocd_process_reset_inner $MODE} result] == 0
Debug: 135 1022 command.c:155 script_debug(): command - target names
Debug: 136 1022 command.c:155 script_debug(): command - stm32f4x.cpu invoke-event reset-start
Debug: 137 1022 target.c:5099 target_handle_event(): target(0): stm32f4x.cpu (hla_target) event: 9 (reset-start) action: 
	# Reduce speed since CPU speed will slow down to 16MHz with the reset
	adapter speed 2000

Debug: 138 1022 command.c:155 script_debug(): command - adapter speed 2000
Debug: 139 1022 adapter.c:251 adapter_config_khz(): handle adapter khz
Debug: 140 1022 adapter.c:215 adapter_khz_to_speed(): convert khz to adapter specific speed value
Debug: 141 1022 adapter.c:219 adapter_khz_to_speed(): have adapter set up
Info : 142 1022 stlink_usb.c:3036 stlink_match_speed_map(): Unable to match requested speed 2000 kHz, using 1800 kHz
Debug: 143 1023 adapter.c:215 adapter_khz_to_speed(): convert khz to adapter specific speed value
Debug: 144 1023 adapter.c:219 adapter_khz_to_speed(): have adapter set up
Info : 145 1023 stlink_usb.c:3036 stlink_match_speed_map(): Unable to match requested speed 2000 kHz, using 1800 kHz
Debug: 146 1023 command.c:155 script_debug(): command - transport select
Debug: 147 1023 command.c:155 script_debug(): command - expr  [ string first "jtag" $_TRANSPORT ] != -1 
Debug: 148 1023 command.c:155 script_debug(): command - transport select
Debug: 149 1023 command.c:155 script_debug(): command - expr  [ string first "jtag" $_TRANSPORT ] != -1 
Debug: 150 1023 command.c:155 script_debug(): command - stm32f4x.cpu invoke-event examine-start
Debug: 151 1023 command.c:155 script_debug(): command - stm32f4x.cpu arp_examine allow-defer
Debug: 152 1023 command.c:155 script_debug(): command - stm32f4x.cpu invoke-event examine-end
Debug: 153 1023 target.c:5099 target_handle_event(): target(0): stm32f4x.cpu (hla_target) event: 21 (examine-end) action: 
	# Enable debug during low power modes (uses more power)
	# DBGMCU_CR |= DBG_STANDBY | DBG_STOP | DBG_SLEEP
	mmw 0xE0042004 0x00000007 0

	# Stop watchdog counters during halt
	# DBGMCU_APB1_FZ |= DBG_IWDG_STOP | DBG_WWDG_STOP
	mmw 0xE0042008 0x00001800 0

Debug: 154 1023 command.c:155 script_debug(): command - read_memory 0xE0042004 32 1
Debug: 155 1023 hla_target.c:601 adapter_read_memory(): adapter_read_memory 0xe0042004 4 1
Debug: 156 1025 stlink_usb.c:1083 stlink_usb_error_check(): wait status SWD_DP_WAIT (0x14)
Debug: 157 1028 stlink_usb.c:1083 stlink_usb_error_check(): wait status SWD_DP_WAIT (0x14)
Debug: 158 1033 stlink_usb.c:1083 stlink_usb_error_check(): wait status SWD_DP_WAIT (0x14)
Debug: 159 1039 stlink_usb.c:1083 stlink_usb_error_check(): wait status SWD_DP_WAIT (0x14)
Debug: 160 1050 stlink_usb.c:1083 stlink_usb_error_check(): wait status SWD_DP_WAIT (0x14)
Debug: 161 1069 stlink_usb.c:1083 stlink_usb_error_check(): wait status SWD_DP_WAIT (0x14)
Debug: 162 1107 stlink_usb.c:1083 stlink_usb_error_check(): wait status SWD_DP_WAIT (0x14)
Debug: 163 1178 stlink_usb.c:1083 stlink_usb_error_check(): wait status SWD_DP_WAIT (0x14)
Debug: 164 1316 stlink_usb.c:1083 stlink_usb_error_check(): wait status SWD_DP_WAIT (0x14)
Error: 165 1316 target.c:4707 target_jim_read_memory(): read_memory: read at 0xe0042004 with width=32 and count=1 failed
User : 166 1316 target.c:5127 target_handle_event(): Error executing event examine-end on target stm32f4x.cpu:
/home/itsnathan21/zephyr-sdk-1.0.1/hosttools/sysroots/x86_64-pokysdk-linux/usr/share/openocd/scripts/mem_helper.tcl:7: Error: read_memory: failed to read memory
in procedure 'ocd_process_reset' 
in procedure 'ocd_process_reset_inner' called at file "embedded:startup.tcl", line 1193
in procedure 'mmw' called at file "/home/itsnathan21/zephyr-sdk-1.0.1/hosttools/sysroots/x86_64-pokysdk-linux/usr/share/openocd/scripts/target/stm32f4x.cfg", line 87
in procedure 'mrw' called at file "/home/itsnathan21/zephyr-sdk-1.0.1/hosttools/sysroots/x86_64-pokysdk-linux/usr/share/openocd/scripts/mem_helper.tcl", line 32
at file "/home/itsnathan21/zephyr-sdk-1.0.1/hosttools/sysroots/x86_64-pokysdk-linux/usr/share/openocd/scripts/mem_helper.tcl", line 7
Debug: 167 1316 command.c:155 script_debug(): command - stm32f4x.cpu invoke-event reset-assert-pre
Debug: 168 1316 command.c:155 script_debug(): command - transport select
Debug: 169 1316 command.c:155 script_debug(): command - expr  [ string first "jtag" $_TRANSPORT ] != -1 
Debug: 170 1316 command.c:155 script_debug(): command - stm32f4x.cpu arp_reset assert 1
Debug: 171 1316 target.c:2199 target_free_all_working_areas_restore(): freeing all working areas
Debug: 172 1316 hla_target.c:336 hl_assert_reset(): hl_assert_reset
Debug: 173 1318 core.c:636 adapter_system_reset(): SRST line asserted
Debug: 174 1321 command.c:155 script_debug(): command - stm32f4x.cpu invoke-event reset-assert-post
Debug: 175 1321 command.c:155 script_debug(): command - stm32f4x.cpu invoke-event reset-deassert-pre
Debug: 176 1321 command.c:155 script_debug(): command - transport select
Debug: 177 1321 command.c:155 script_debug(): command - expr  [ string first "jtag" $_TRANSPORT ] != -1 
Debug: 178 1321 command.c:155 script_debug(): command - stm32f4x.cpu arp_reset deassert 1
Debug: 179 1321 target.c:2199 target_free_all_working_areas_restore(): freeing all working areas
Debug: 180 1321 hla_target.c:402 hl_deassert_reset(): hl_deassert_reset
Debug: 181 1322 core.c:640 adapter_system_reset(): SRST line released
Debug: 182 1429 command.c:155 script_debug(): command - stm32f4x.cpu invoke-event reset-deassert-post
Debug: 183 1429 command.c:155 script_debug(): command - transport select
Debug: 184 1429 command.c:155 script_debug(): command - expr  [ string first "jtag" $_TRANSPORT ] != -1 
Debug: 185 1429 command.c:155 script_debug(): command - stm32f4x.cpu was_examined
Debug: 186 1429 command.c:155 script_debug(): command - stm32f4x.cpu arp_waitstate halted 1000
Info : 187 1429 stlink_usb.c:2127 stlink_usb_state(): Previous state query failed, trying to reconnect
Debug: 188 1434 hla_target.c:601 adapter_read_memory(): adapter_read_memory 0xe000edf8 4 1
Debug: 189 1437 target.c:2628 target_read_u32(): address: 0xe000edf8, value: 0x00000000
Debug: 190 1439 armv7m.c:368 armv7m_read_core_reg(): read r0 value 0x00000000
Debug: 191 1440 armv7m.c:368 armv7m_read_core_reg(): read r1 value 0x00000000
Debug: 192 1441 armv7m.c:368 armv7m_read_core_reg(): read r2 value 0x00000000
Debug: 193 1442 armv7m.c:368 armv7m_read_core_reg(): read r3 value 0x00000000
Debug: 194 1443 armv7m.c:368 armv7m_read_core_reg(): read r4 value 0x00000000
Debug: 195 1444 armv7m.c:368 armv7m_read_core_reg(): read r5 value 0x00000000
Debug: 196 1445 armv7m.c:368 armv7m_read_core_reg(): read r6 value 0x00000000
Debug: 197 1446 armv7m.c:368 armv7m_read_core_reg(): read r7 value 0x00000000
Debug: 198 1446 armv7m.c:368 armv7m_read_core_reg(): read r8 value 0x00000000
Debug: 199 1447 armv7m.c:368 armv7m_read_core_reg(): read r9 value 0x00000000
Debug: 200 1448 armv7m.c:368 armv7m_read_core_reg(): read r10 value 0x00000000
Debug: 201 1449 armv7m.c:368 armv7m_read_core_reg(): read r11 value 0x00000000
Debug: 202 1450 armv7m.c:368 armv7m_read_core_reg(): read r12 value 0x00000000
Debug: 203 1451 armv7m.c:368 armv7m_read_core_reg(): read sp value 0x200011c0
Debug: 204 1452 armv7m.c:368 armv7m_read_core_reg(): read lr value 0xffffffff
Debug: 205 1453 armv7m.c:368 armv7m_read_core_reg(): read pc value 0x08000de8
Debug: 206 1454 armv7m.c:368 armv7m_read_core_reg(): read xPSR value 0x01000000
Debug: 207 1455 armv7m.c:368 armv7m_read_core_reg(): read msp value 0x200011c0
Debug: 208 1456 armv7m.c:368 armv7m_read_core_reg(): read psp value 0x00000000
Debug: 209 1456 armv7m.c:368 armv7m_read_core_reg(): read pmsk_bpri_fltmsk_ctrl value 0x00000000
Debug: 210 1457 armv7m.c:368 armv7m_read_core_reg(): read msp_ns value 0x01000000
Debug: 211 1458 armv7m.c:368 armv7m_read_core_reg(): read psp_ns value 0x200011c0
Debug: 212 1459 armv7m.c:368 armv7m_read_core_reg(): read msp_s value 0x00000000
Debug: 213 1460 armv7m.c:368 armv7m_read_core_reg(): read psp_s value 0x00000000
Debug: 214 1461 armv7m.c:368 armv7m_read_core_reg(): read msplim_s value 0x00000000
Debug: 215 1462 armv7m.c:368 armv7m_read_core_reg(): read psplim_s value 0x200011c0
Debug: 216 1463 armv7m.c:368 armv7m_read_core_reg(): read msplim_ns value 0x00000000
Debug: 217 1464 armv7m.c:368 armv7m_read_core_reg(): read psplim_ns value 0x00000000
Debug: 218 1465 armv7m.c:368 armv7m_read_core_reg(): read pmsk_bpri_fltmsk_ctrl_s value 0x00000000
Debug: 219 1465 armv7m.c:368 armv7m_read_core_reg(): read pmsk_bpri_fltmsk_ctrl_ns value 0x00000000
Debug: 220 1467 armv7m.c:366 armv7m_read_core_reg(): read d0 value 0x0000000000000000
Debug: 221 1468 armv7m.c:366 armv7m_read_core_reg(): read d1 value 0x0000000000000000
Debug: 222 1470 armv7m.c:366 armv7m_read_core_reg(): read d2 value 0x0000000000000000
Debug: 223 1471 armv7m.c:366 armv7m_read_core_reg(): read d3 value 0x0000000000000000
Debug: 224 1473 armv7m.c:366 armv7m_read_core_reg(): read d4 value 0x0000000000000000
Debug: 225 1474 armv7m.c:366 armv7m_read_core_reg(): read d5 value 0x0000000000000000
Debug: 226 1476 armv7m.c:366 armv7m_read_core_reg(): read d6 value 0x0000000000000000
Debug: 227 1477 armv7m.c:366 armv7m_read_core_reg(): read d7 value 0x0000000000000000
Debug: 228 1479 armv7m.c:366 armv7m_read_core_reg(): read d8 value 0x0000000000000000
Debug: 229 1481 armv7m.c:366 armv7m_read_core_reg(): read d9 value 0x0000000000000000
Debug: 230 1482 armv7m.c:366 armv7m_read_core_reg(): read d10 value 0x0000000000000000
Debug: 231 1484 armv7m.c:366 armv7m_read_core_reg(): read d11 value 0x0000000000000000
Debug: 232 1485 armv7m.c:366 armv7m_read_core_reg(): read d12 value 0x0000000000000000
Debug: 233 1487 armv7m.c:366 armv7m_read_core_reg(): read d13 value 0x0000000000000000
Debug: 234 1489 armv7m.c:366 armv7m_read_core_reg(): read d14 value 0x0000000000000000
Debug: 235 1490 armv7m.c:366 armv7m_read_core_reg(): read d15 value 0x0000000000000000
Debug: 236 1491 armv7m.c:368 armv7m_read_core_reg(): read fpscr value 0x00000000
Debug: 237 1492 hla_target.c:278 adapter_debug_entry(): entered debug state in core mode: Thread at PC 0x08000de8, target->state: halted
Debug: 238 1492 target.c:1843 target_call_event_callbacks(): target event 0 (gdb-halt) for core stm32f4x.cpu
Debug: 239 1492 target.c:1843 target_call_event_callbacks(): target event 1 (halted) for core stm32f4x.cpu
User : 240 1492 armv7m.c:738 armv7m_arch_state(): [stm32f4x.cpu] halted due to debug-request, current mode: Thread 
xPSR: 0x01000000 pc: 0x08000de8 msp: 0x200011c0
Debug: 241 1492 hla_target.c:323 adapter_poll(): halted: PC: 0x08000de8
Debug: 242 1492 command.c:155 script_debug(): command - stm32f4x.cpu curstate
Debug: 243 1492 command.c:155 script_debug(): command - transport select
Debug: 244 1492 command.c:155 script_debug(): command - expr  [ string first "jtag" $_TRANSPORT ] != -1 
Debug: 245 1492 command.c:155 script_debug(): command - stm32f4x.cpu was_examined
Debug: 246 1492 command.c:155 script_debug(): command - stm32f4x.cpu arp_waitstate halted 5000
Debug: 247 1492 command.c:155 script_debug(): command - stm32f4x.cpu invoke-event reset-init
Debug: 248 1492 target.c:5099 target_handle_event(): target(0): stm32f4x.cpu (hla_target) event: 15 (reset-init) action: 
	# Configure PLL to boost clock to HSI x 4 (64 MHz)
	mww 0x40023804 0x08012008   ;# RCC_PLLCFGR 16 Mhz /8 (M) * 128 (N) /4(P)
	mww 0x40023C00 0x00000102   ;# FLASH_ACR = PRFTBE | 2(Latency)
	mmw 0x40023800 0x01000000 0 ;# RCC_CR |= PLLON
	sleep 10                    ;# Wait for PLL to lock
	mmw 0x40023808 0x00001000 0 ;# RCC_CFGR |= RCC_CFGR_PPRE1_DIV2
	mmw 0x40023808 0x00000002 0 ;# RCC_CFGR |= RCC_CFGR_SW_PLL

	# Boost JTAG frequency
	adapter speed 8000

Debug: 249 1492 command.c:155 script_debug(): command - mww 0x40023804 0x08012008
Debug: 250 1492 hla_target.c:616 adapter_write_memory(): adapter_write_memory 0x40023804 4 1
Debug: 251 1493 command.c:155 script_debug(): command - mww 0x40023C00 0x00000102
Debug: 252 1493 hla_target.c:616 adapter_write_memory(): adapter_write_memory 0x40023c00 4 1
Debug: 253 1494 command.c:155 script_debug(): command - read_memory 0x40023800 32 1
Debug: 254 1494 hla_target.c:601 adapter_read_memory(): adapter_read_memory 0x40023800 4 1
Debug: 255 1495 command.c:155 script_debug(): command - expr ($old & ~$clearbits) | $setbits
Debug: 256 1495 command.c:155 script_debug(): command - mww 0x40023800 17069955
Debug: 257 1495 hla_target.c:616 adapter_write_memory(): adapter_write_memory 0x40023800 4 1
Debug: 258 1496 command.c:155 script_debug(): command - sleep 10
Debug: 259 1507 command.c:155 script_debug(): command - read_memory 0x40023808 32 1
Debug: 260 1507 hla_target.c:601 adapter_read_memory(): adapter_read_memory 0x40023808 4 1
Debug: 261 1508 command.c:155 script_debug(): command - expr ($old & ~$clearbits) | $setbits
Debug: 262 1508 command.c:155 script_debug(): command - mww 0x40023808 4096
Debug: 263 1508 hla_target.c:616 adapter_write_memory(): adapter_write_memory 0x40023808 4 1
Debug: 264 1509 command.c:155 script_debug(): command - read_memory 0x40023808 32 1
Debug: 265 1509 hla_target.c:601 adapter_read_memory(): adapter_read_memory 0x40023808 4 1
Debug: 266 1510 command.c:155 script_debug(): command - expr ($old & ~$clearbits) | $setbits
Debug: 267 1510 command.c:155 script_debug(): command - mww 0x40023808 4098
Debug: 268 1510 hla_target.c:616 adapter_write_memory(): adapter_write_memory 0x40023808 4 1
Debug: 269 1512 command.c:155 script_debug(): command - adapter speed 8000
Debug: 270 1512 adapter.c:251 adapter_config_khz(): handle adapter khz
Debug: 271 1512 adapter.c:215 adapter_khz_to_speed(): convert khz to adapter specific speed value
Debug: 272 1512 adapter.c:219 adapter_khz_to_speed(): have adapter set up
Info : 273 1512 stlink_usb.c:3036 stlink_match_speed_map(): Unable to match requested speed 8000 kHz, using 4000 kHz
Debug: 274 1513 adapter.c:215 adapter_khz_to_speed(): convert khz to adapter specific speed value
Debug: 275 1513 adapter.c:219 adapter_khz_to_speed(): have adapter set up
Info : 276 1513 stlink_usb.c:3036 stlink_match_speed_map(): Unable to match requested speed 8000 kHz, using 4000 kHz
Debug: 277 1513 command.c:155 script_debug(): command - stm32f4x.cpu invoke-event reset-end
User : 278 1516 target.c:3067 handle_target(): Polling target stm32f4x.cpu failed, trying to reexamine
Debug: 279 1516 target.c:1843 target_call_event_callbacks(): target event 19 (examine-start) for core stm32f4x.cpu
Debug: 280 1516 hla_target.c:601 adapter_read_memory(): adapter_read_memory 0xe000ed00 4 1
Debug: 281 1517 target.c:2628 target_read_u32(): address: 0xe000ed00, value: 0x410fc241
Info : 282 1520 cortex_m.c:2369 cortex_m_examine(): [stm32f4x.cpu] Cortex-M4 r0p1 processor detected
Debug: 283 1520 cortex_m.c:2384 cortex_m_examine(): [stm32f4x.cpu] cpuid: 0x410fc241
Debug: 284 1520 hla_target.c:601 adapter_read_memory(): adapter_read_memory 0xe000ef40 4 1
Debug: 285 1521 target.c:2628 target_read_u32(): address: 0xe000ef40, value: 0x10110021
Debug: 286 1521 hla_target.c:601 adapter_read_memory(): adapter_read_memory 0xe000ef44 4 1
Debug: 287 1523 target.c:2628 target_read_u32(): address: 0xe000ef44, value: 0x11000011
Debug: 288 1523 cortex_m.c:2392 cortex_m_examine(): [stm32f4x.cpu] Cortex-M4 floating point feature FPv4_SP found
Debug: 289 1523 hla_target.c:601 adapter_read_memory(): adapter_read_memory 0xe000edf0 4 1
Debug: 290 1524 target.c:2628 target_read_u32(): address: 0xe000edf0, value: 0x00030003
Debug: 291 1524 target.c:2716 target_write_u32(): address: 0xe000edfc, value: 0x01000000
Debug: 292 1524 hla_target.c:616 adapter_write_memory(): adapter_write_memory 0xe000edfc 4 1
Debug: 293 1524 hla_target.c:601 adapter_read_memory(): adapter_read_memory 0xe0002000 4 1
Debug: 294 1525 target.c:2628 target_read_u32(): address: 0xe0002000, value: 0x00000260
Debug: 295 1525 target.c:2716 target_write_u32(): address: 0xe0002008, value: 0x00000000
Debug: 296 1525 hla_target.c:616 adapter_write_memory(): adapter_write_memory 0xe0002008 4 1
Debug: 297 1526 target.c:2716 target_write_u32(): address: 0xe000200c, value: 0x00000000
Debug: 298 1526 hla_target.c:616 adapter_write_memory(): adapter_write_memory 0xe000200c 4 1
Debug: 299 1527 target.c:2716 target_write_u32(): address: 0xe0002010, value: 0x00000000
Debug: 300 1527 hla_target.c:616 adapter_write_memory(): adapter_write_memory 0xe0002010 4 1
Debug: 301 1527 target.c:2716 target_write_u32(): address: 0xe0002014, value: 0x00000000
Debug: 302 1527 hla_target.c:616 adapter_write_memory(): adapter_write_memory 0xe0002014 4 1
Debug: 303 1528 target.c:2716 target_write_u32(): address: 0xe0002018, value: 0x00000000
Debug: 304 1528 hla_target.c:616 adapter_write_memory(): adapter_write_memory 0xe0002018 4 1
Debug: 305 1529 target.c:2716 target_write_u32(): address: 0xe000201c, value: 0x00000000
Debug: 306 1529 hla_target.c:616 adapter_write_memory(): adapter_write_memory 0xe000201c 4 1
Debug: 307 1530 target.c:2716 target_write_u32(): address: 0xe0002020, value: 0x00000000
Debug: 308 1530 hla_target.c:616 adapter_write_memory(): adapter_write_memory 0xe0002020 4 1
Debug: 309 1531 target.c:2716 target_write_u32(): address: 0xe0002024, value: 0x00000000
Debug: 310 1531 hla_target.c:616 adapter_write_memory(): adapter_write_memory 0xe0002024 4 1
Debug: 311 1532 cortex_m.c:2488 cortex_m_examine(): [stm32f4x.cpu] FPB fpcr 0x260, numcode 6, numlit 2
Debug: 312 1532 hla_target.c:601 adapter_read_memory(): adapter_read_memory 0xe0001000 4 1
Debug: 313 1534 target.c:2628 target_read_u32(): address: 0xe0001000, value: 0x40000000
Debug: 314 1534 cortex_m.c:2187 cortex_m_dwt_setup(): [stm32f4x.cpu] DWT_CTRL: 0x40000000
Debug: 315 1534 hla_target.c:601 adapter_read_memory(): adapter_read_memory 0xe0001fbc 4 1
Debug: 316 1534 target.c:2628 target_read_u32(): address: 0xe0001fbc, value: 0x00000000
Debug: 317 1534 cortex_m.c:2194 cortex_m_dwt_setup(): [stm32f4x.cpu] DWT_DEVARCH: 0x0
Debug: 318 1534 target.c:2716 target_write_u32(): address: 0xe0001028, value: 0x00000000
Debug: 319 1534 hla_target.c:616 adapter_write_memory(): adapter_write_memory 0xe0001028 4 1
Debug: 320 1535 target.c:2716 target_write_u32(): address: 0xe0001038, value: 0x00000000
Debug: 321 1535 hla_target.c:616 adapter_write_memory(): adapter_write_memory 0xe0001038 4 1
Debug: 322 1536 target.c:2716 target_write_u32(): address: 0xe0001048, value: 0x00000000
Debug: 323 1536 hla_target.c:616 adapter_write_memory(): adapter_write_memory 0xe0001048 4 1
Debug: 324 1536 target.c:2716 target_write_u32(): address: 0xe0001058, value: 0x00000000
Debug: 325 1536 hla_target.c:616 adapter_write_memory(): adapter_write_memory 0xe0001058 4 1
Debug: 326 1537 cortex_m.c:2241 cortex_m_dwt_setup(): [stm32f4x.cpu] DWT dwtcr 0x40000000, comp 4, watch/trigger
Info : 327 1537 cortex_m.c:2498 cortex_m_examine(): [stm32f4x.cpu] target has 6 breakpoints, 4 watchpoints
Debug: 328 1537 target.c:1843 target_call_event_callbacks(): target event 21 (examine-end) for core stm32f4x.cpu
Debug: 329 1537 target.c:5099 target_handle_event(): target(0): stm32f4x.cpu (hla_target) event: 21 (examine-end) action: 
	# Enable debug during low power modes (uses more power)
	# DBGMCU_CR |= DBG_STANDBY | DBG_STOP | DBG_SLEEP
	mmw 0xE0042004 0x00000007 0

	# Stop watchdog counters during halt
	# DBGMCU_APB1_FZ |= DBG_IWDG_STOP | DBG_WWDG_STOP
	mmw 0xE0042008 0x00001800 0

Debug: 330 1537 command.c:155 script_debug(): command - read_memory 0xE0042004 32 1
Debug: 331 1537 hla_target.c:601 adapter_read_memory(): adapter_read_memory 0xe0042004 4 1
Debug: 332 1538 command.c:155 script_debug(): command - expr ($old & ~$clearbits) | $setbits
Debug: 333 1538 command.c:155 script_debug(): command - mww 0xE0042004 7
Debug: 334 1538 hla_target.c:616 adapter_write_memory(): adapter_write_memory 0xe0042004 4 1
Debug: 335 1539 command.c:155 script_debug(): command - read_memory 0xE0042008 32 1
Debug: 336 1539 hla_target.c:601 adapter_read_memory(): adapter_read_memory 0xe0042008 4 1
Debug: 337 1539 command.c:155 script_debug(): command - expr ($old & ~$clearbits) | $setbits
Debug: 338 1539 command.c:155 script_debug(): command - mww 0xE0042008 6144
Debug: 339 1539 hla_target.c:616 adapter_write_memory(): adapter_write_memory 0xe0042008 4 1
Debug: 340 1540 command.c:155 script_debug(): command - flash write_image erase build/zephyr/zephyr.hex
Debug: 341 1541 configuration.c:88 find_file(): found build/zephyr/zephyr.hex
Debug: 342 1541 image.c:76 autodetect_image_type(): IHEX image detected.
Debug: 343 1541 configuration.c:88 find_file(): found build/zephyr/zephyr.hex
Debug: 344 1542 hla_target.c:601 adapter_read_memory(): adapter_read_memory 0xe0042000 4 1
Debug: 345 1543 target.c:2628 target_read_u32(): address: 0xe0042000, value: 0x10016433
Info : 346 1543 stm32f2x.c:1043 stm32x_probe(): device id = 0x10016433
Debug: 347 1543 hla_target.c:601 adapter_read_memory(): adapter_read_memory 0x1fff7a22 2 1
Debug: 348 1544 target.c:2652 target_read_u16(): address: 0x1fff7a22, value: 0x0200
Info : 349 1544 stm32f2x.c:1128 stm32x_probe(): flash size = 512 KiB
Debug: 350 1544 stm32f2x.c:1180 stm32x_probe(): allocated 8 sectors
Debug: 351 1544 stm32f2x.c:890 setup_sector(): sector 0: 16kBytes
Debug: 352 1544 stm32f2x.c:890 setup_sector(): sector 1: 16kBytes
Debug: 353 1544 stm32f2x.c:890 setup_sector(): sector 2: 16kBytes
Debug: 354 1544 stm32f2x.c:890 setup_sector(): sector 3: 16kBytes
Debug: 355 1544 stm32f2x.c:890 setup_sector(): sector 4: 64kBytes
Debug: 356 1544 stm32f2x.c:890 setup_sector(): sector 5: 128kBytes
Debug: 357 1544 stm32f2x.c:890 setup_sector(): sector 6: 128kBytes
Debug: 358 1544 stm32f2x.c:890 setup_sector(): sector 7: 128kBytes
Debug: 359 1544 core.c:926 flash_write_unlock_verify(): image_read_section: section = 0, t_section_num = 0, section_offset = 0, buffer_idx = 0, size_read = 22748
Debug: 360 1544 hla_target.c:601 adapter_read_memory(): adapter_read_memory 0x40023c10 4 1
Debug: 361 1545 target.c:2628 target_read_u32(): address: 0x40023c10, value: 0x80000000
Debug: 362 1545 target.c:2716 target_write_u32(): address: 0x40023c04, value: 0x45670123
Debug: 363 1545 hla_target.c:616 adapter_write_memory(): adapter_write_memory 0x40023c04 4 1
Debug: 364 1545 target.c:2716 target_write_u32(): address: 0x40023c04, value: 0xcdef89ab
Debug: 365 1545 hla_target.c:616 adapter_write_memory(): adapter_write_memory 0x40023c04 4 1
Debug: 366 1546 hla_target.c:601 adapter_read_memory(): adapter_read_memory 0x40023c10 4 1
Debug: 367 1548 target.c:2628 target_read_u32(): address: 0x40023c10, value: 0x00000000
Debug: 368 1548 target.c:2716 target_write_u32(): address: 0x40023c10, value: 0x00010002
Debug: 369 1548 hla_target.c:616 adapter_write_memory(): adapter_write_memory 0x40023c10 4 1
Debug: 370 1549 hla_target.c:601 adapter_read_memory(): adapter_read_memory 0x40023c0c 4 1
Debug: 371 1550 target.c:2628 target_read_u32(): address: 0x40023c0c, value: 0x00010000
Debug: 372 1550 stm32f2x.c:284 stm32x_wait_status_busy(): status: 0x10000
Debug: 373 1551 hla_target.c:601 adapter_read_memory(): adapter_read_memory 0x40023c0c 4 1
Debug: 374 1552 target.c:2628 target_read_u32(): address: 0x40023c0c, value: 0x00010000
Debug: 375 1552 stm32f2x.c:284 stm32x_wait_status_busy(): status: 0x10000
Debug: 376 1553 hla_target.c:601 adapter_read_memory(): adapter_read_memory 0x40023c0c 4 1
Debug: 377 1554 target.c:2628 target_read_u32(): address: 0x40023c0c, value: 0x00010000
Debug: 378 1554 stm32f2x.c:284 stm32x_wait_status_busy(): status: 0x10000
Debug: 379 1555 hla_target.c:601 adapter_read_memory(): adapter_read_memory 0x40023c0c 4 1
Debug: 380 1556 target.c:2628 target_read_u32(): address: 0x40023c0c, value: 0x00010000
Debug: 381 1556 stm32f2x.c:284 stm32x_wait_status_busy(): status: 0x10000
Debug: 382 1558 hla_target.c:601 adapter_read_memory(): adapter_read_memory 0x40023c0c 4 1
Debug: 383 1559 target.c:2628 target_read_u32(): address: 0x40023c0c, value: 0x00010000
Debug: 384 1559 stm32f2x.c:284 stm32x_wait_status_busy(): status: 0x10000
Debug: 385 1560 hla_target.c:601 adapter_read_memory(): adapter_read_memory 0x40023c0c 4 1
Debug: 386 1561 target.c:2628 target_read_u32(): address: 0x40023c0c, value: 0x00010000
Debug: 387 1561 stm32f2x.c:284 stm32x_wait_status_busy(): status: 0x10000
Debug: 388 1562 hla_target.c:601 adapter_read_memory(): adapter_read_memory 0x40023c0c 4 1
Debug: 389 1563 target.c:2628 target_read_u32(): address: 0x40023c0c, value: 0x00010000
Debug: 390 1563 stm32f2x.c:284 stm32x_wait_status_busy(): status: 0x10000
Debug: 391 1564 hla_target.c:601 adapter_read_memory(): adapter_read_memory 0x40023c0c 4 1
Debug: 392 1565 target.c:2628 target_read_u32(): address: 0x40023c0c, value: 0x00010000
Debug: 393 1565 stm32f2x.c:284 stm32x_wait_status_busy(): status: 0x10000
Debug: 394 1566 hla_target.c:601 adapter_read_memory(): adapter_read_memory 0x40023c0c 4 1
Debug: 395 1568 target.c:2628 target_read_u32(): address: 0x40023c0c, value: 0x00010000
Debug: 396 1568 stm32f2x.c:284 stm32x_wait_status_busy(): status: 0x10000
Debug: 397 1569 hla_target.c:601 adapter_read_memory(): adapter_read_memory 0x40023c0c 4 1
Debug: 398 1570 target.c:2628 target_read_u32(): address: 0x40023c0c, value: 0x00010000
Debug: 399 1570 stm32f2x.c:284 stm32x_wait_status_busy(): status: 0x10000
Debug: 400 1571 hla_target.c:601 adapter_read_memory(): adapter_read_memory 0x40023c0c 4 1
Debug: 401 1572 target.c:2628 target_read_u32(): address: 0x40023c0c, value: 0x00010000
Debug: 402 1572 stm32f2x.c:284 stm32x_wait_status_busy(): status: 0x10000
Debug: 403 1573 hla_target.c:601 adapter_read_memory(): adapter_read_memory 0x40023c0c 4 1
Debug: 404 1574 target.c:2628 target_read_u32(): address: 0x40023c0c, value: 0x00010000
Debug: 405 1574 stm32f2x.c:284 stm32x_wait_status_busy(): status: 0x10000
Debug: 406 1576 hla_target.c:601 adapter_read_memory(): adapter_read_memory 0x40023c0c 4 1
Debug: 407 1576 target.c:2628 target_read_u32(): address: 0x40023c0c, value: 0x00010000
Debug: 408 1576 stm32f2x.c:284 stm32x_wait_status_busy(): status: 0x10000
Debug: 409 1577 hla_target.c:601 adapter_read_memory(): adapter_read_memory 0x40023c0c 4 1
Debug: 410 1578 target.c:2628 target_read_u32(): address: 0x40023c0c, value: 0x00010000
Debug: 411 1578 stm32f2x.c:284 stm32x_wait_status_busy(): status: 0x10000
Debug: 412 1580 hla_target.c:601 adapter_read_memory(): adapter_read_memory 0x40023c0c 4 1
Debug: 413 1580 target.c:2628 target_read_u32(): address: 0x40023c0c, value: 0x00010000
Debug: 414 1580 stm32f2x.c:284 stm32x_wait_status_busy(): status: 0x10000
Debug: 415 1582 hla_target.c:601 adapter_read_memory(): adapter_read_memory 0x40023c0c 4 1
Debug: 416 1583 target.c:2628 target_read_u32(): address: 0x40023c0c, value: 0x00010000
Debug: 417 1583 stm32f2x.c:284 stm32x_wait_status_busy(): status: 0x10000
Debug: 418 1584 hla_target.c:601 adapter_read_memory(): adapter_read_memory 0x40023c0c 4 1
Debug: 419 1585 target.c:2628 target_read_u32(): address: 0x40023c0c, value: 0x00010000
Debug: 420 1585 stm32f2x.c:284 stm32x_wait_status_busy(): status: 0x10000
Debug: 421 1587 hla_target.c:601 adapter_read_memory(): adapter_read_memory 0x40023c0c 4 1
Debug: 422 1588 target.c:2628 target_read_u32(): address: 0x40023c0c, value: 0x00010000
Debug: 423 1588 stm32f2x.c:284 stm32x_wait_status_busy(): status: 0x10000
Debug: 424 1589 hla_target.c:601 adapter_read_memory(): adapter_read_memory 0x40023c0c 4 1
Debug: 425 1590 target.c:2628 target_read_u32(): address: 0x40023c0c, value: 0x00010000
Debug: 426 1590 stm32f2x.c:284 stm32x_wait_status_busy(): status: 0x10000
Debug: 427 1591 hla_target.c:601 adapter_read_memory(): adapter_read_memory 0x40023c0c 4 1
Debug: 428 1592 target.c:2628 target_read_u32(): address: 0x40023c0c, value: 0x00010000
Debug: 429 1592 stm32f2x.c:284 stm32x_wait_status_busy(): status: 0x10000
Debug: 430 1593 hla_target.c:601 adapter_read_memory(): adapter_read_memory 0x40023c0c 4 1
Debug: 431 1594 target.c:2628 target_read_u32(): address: 0x40023c0c, value: 0x00010000
Debug: 432 1594 stm32f2x.c:284 stm32x_wait_status_busy(): status: 0x10000
Debug: 433 1595 hla_target.c:601 adapter_read_memory(): adapter_read_memory 0x40023c0c 4 1
Debug: 434 1597 target.c:2628 target_read_u32(): address: 0x40023c0c, value: 0x00010000
Debug: 435 1597 stm32f2x.c:284 stm32x_wait_status_busy(): status: 0x10000
Debug: 436 1598 hla_target.c:601 adapter_read_memory(): adapter_read_memory 0x40023c0c 4 1
Debug: 437 1607 target.c:2628 target_read_u32(): address: 0x40023c0c, value: 0x00010000
Debug: 438 1607 stm32f2x.c:284 stm32x_wait_status_busy(): status: 0x10000
Debug: 439 1608 hla_target.c:601 adapter_read_memory(): adapter_read_memory 0x40023c0c 4 1
Debug: 440 1610 target.c:2628 target_read_u32(): address: 0x40023c0c, value: 0x00010000
Debug: 441 1610 stm32f2x.c:284 stm32x_wait_status_busy(): status: 0x10000
Debug: 442 1611 hla_target.c:601 adapter_read_memory(): adapter_read_memory 0x40023c0c 4 1
Debug: 443 1612 target.c:2628 target_read_u32(): address: 0x40023c0c, value: 0x00010000
Debug: 444 1612 stm32f2x.c:284 stm32x_wait_status_busy(): status: 0x10000
Debug: 445 1613 hla_target.c:601 adapter_read_memory(): adapter_read_memory 0x40023c0c 4 1
Debug: 446 1615 target.c:2628 target_read_u32(): address: 0x40023c0c, value: 0x00010000
Debug: 447 1615 stm32f2x.c:284 stm32x_wait_status_busy(): status: 0x10000
Debug: 448 1616 hla_target.c:601 adapter_read_memory(): adapter_read_memory 0x40023c0c 4 1
Debug: 449 1618 target.c:2628 target_read_u32(): address: 0x40023c0c, value: 0x00010000
Debug: 450 1618 stm32f2x.c:284 stm32x_wait_status_busy(): status: 0x10000
Debug: 451 1619 hla_target.c:601 adapter_read_memory(): adapter_read_memory 0x40023c0c 4 1
Debug: 452 1621 target.c:2628 target_read_u32(): address: 0x40023c0c, value: 0x00010000
Debug: 453 1621 stm32f2x.c:284 stm32x_wait_status_busy(): status: 0x10000
Debug: 454 1622 hla_target.c:601 adapter_read_memory(): adapter_read_memory 0x40023c0c 4 1
Debug: 455 1624 target.c:2628 target_read_u32(): address: 0x40023c0c, value: 0x00010000
Debug: 456 1624 stm32f2x.c:284 stm32x_wait_status_busy(): status: 0x10000
Debug: 457 1625 hla_target.c:601 adapter_read_memory(): adapter_read_memory 0x40023c0c 4 1
Debug: 458 1627 target.c:2628 target_read_u32(): address: 0x40023c0c, value: 0x00010000
Debug: 459 1627 stm32f2x.c:284 stm32x_wait_status_busy(): status: 0x10000
Debug: 460 1628 hla_target.c:601 adapter_read_memory(): adapter_read_memory 0x40023c0c 4 1
Debug: 461 1630 target.c:2628 target_read_u32(): address: 0x40023c0c, value: 0x00010000
Debug: 462 1630 stm32f2x.c:284 stm32x_wait_status_busy(): status: 0x10000
Debug: 463 1631 hla_target.c:601 adapter_read_memory(): adapter_read_memory 0x40023c0c 4 1
Debug: 464 1641 target.c:2628 target_read_u32(): address: 0x40023c0c, value: 0x00010000
Debug: 465 1641 stm32f2x.c:284 stm32x_wait_status_busy(): status: 0x10000
Debug: 466 1642 hla_target.c:601 adapter_read_memory(): adapter_read_memory 0x40023c0c 4 1
Debug: 467 1643 target.c:2628 target_read_u32(): address: 0x40023c0c, value: 0x00010000
Debug: 468 1643 stm32f2x.c:284 stm32x_wait_status_busy(): status: 0x10000
Debug: 469 1644 hla_target.c:601 adapter_read_memory(): adapter_read_memory 0x40023c0c 4 1
Debug: 470 1650 target.c:2628 target_read_u32(): address: 0x40023c0c, value: 0x00010000
Debug: 471 1650 stm32f2x.c:284 stm32x_wait_status_busy(): status: 0x10000
Debug: 472 1651 hla_target.c:601 adapter_read_memory(): adapter_read_memory 0x40023c0c 4 1
Debug: 473 1661 target.c:2628 target_read_u32(): address: 0x40023c0c, value: 0x00010000
Debug: 474 1661 stm32f2x.c:284 stm32x_wait_status_busy(): status: 0x10000
Debug: 475 1662 hla_target.c:601 adapter_read_memory(): adapter_read_memory 0x40023c0c 4 1
Debug: 476 1664 target.c:2628 target_read_u32(): address: 0x40023c0c, value: 0x00010000
Debug: 477 1664 stm32f2x.c:284 stm32x_wait_status_busy(): status: 0x10000
Debug: 478 1665 hla_target.c:601 adapter_read_memory(): adapter_read_memory 0x40023c0c 4 1
Debug: 479 1673 target.c:2628 target_read_u32(): address: 0x40023c0c, value: 0x00010000
Debug: 480 1673 stm32f2x.c:284 stm32x_wait_status_busy(): status: 0x10000
Debug: 481 1674 hla_target.c:601 adapter_read_memory(): adapter_read_memory 0x40023c0c 4 1
Debug: 482 1675 target.c:2628 target_read_u32(): address: 0x40023c0c, value: 0x00010000
Debug: 483 1675 stm32f2x.c:284 stm32x_wait_status_busy(): status: 0x10000
Debug: 484 1676 hla_target.c:601 adapter_read_memory(): adapter_read_memory 0x40023c0c 4 1
Debug: 485 1683 target.c:2628 target_read_u32(): address: 0x40023c0c, value: 0x00010000
Debug: 486 1683 stm32f2x.c:284 stm32x_wait_status_busy(): status: 0x10000
Debug: 487 1684 hla_target.c:601 adapter_read_memory(): adapter_read_memory 0x40023c0c 4 1
Debug: 488 1695 target.c:2628 target_read_u32(): address: 0x40023c0c, value: 0x00010000
Debug: 489 1695 stm32f2x.c:284 stm32x_wait_status_busy(): status: 0x10000
Debug: 490 1696 hla_target.c:601 adapter_read_memory(): adapter_read_memory 0x40023c0c 4 1
Debug: 491 1698 target.c:2628 target_read_u32(): address: 0x40023c0c, value: 0x00010000
Debug: 492 1698 stm32f2x.c:284 stm32x_wait_status_busy(): status: 0x10000
Debug: 493 1700 hla_target.c:601 adapter_read_memory(): adapter_read_memory 0x40023c0c 4 1
Debug: 494 1701 target.c:2628 target_read_u32(): address: 0x40023c0c, value: 0x00010000
Debug: 495 1701 stm32f2x.c:284 stm32x_wait_status_busy(): status: 0x10000
Debug: 496 1703 hla_target.c:601 adapter_read_memory(): adapter_read_memory 0x40023c0c 4 1
Debug: 497 1704 target.c:2628 target_read_u32(): address: 0x40023c0c, value: 0x00010000
Debug: 498 1704 stm32f2x.c:284 stm32x_wait_status_busy(): status: 0x10000
Debug: 499 1705 hla_target.c:601 adapter_read_memory(): adapter_read_memory 0x40023c0c 4 1
Debug: 500 1714 target.c:2628 target_read_u32(): address: 0x40023c0c, value: 0x00010000
Debug: 501 1714 stm32f2x.c:284 stm32x_wait_status_busy(): status: 0x10000
Debug: 502 1716 hla_target.c:601 adapter_read_memory(): adapter_read_memory 0x40023c0c 4 1
Debug: 503 1717 target.c:2628 target_read_u32(): address: 0x40023c0c, value: 0x00010000
Debug: 504 1717 stm32f2x.c:284 stm32x_wait_status_busy(): status: 0x10000
Debug: 505 1718 hla_target.c:601 adapter_read_memory(): adapter_read_memory 0x40023c0c 4 1
Debug: 506 1720 target.c:2628 target_read_u32(): address: 0x40023c0c, value: 0x00010000
Debug: 507 1720 stm32f2x.c:284 stm32x_wait_status_busy(): status: 0x10000
Debug: 508 1721 hla_target.c:601 adapter_read_memory(): adapter_read_memory 0x40023c0c 4 1
Debug: 509 1723 target.c:2628 target_read_u32(): address: 0x40023c0c, value: 0x00010000
Debug: 510 1723 stm32f2x.c:284 stm32x_wait_status_busy(): status: 0x10000
Debug: 511 1724 hla_target.c:601 adapter_read_memory(): adapter_read_memory 0x40023c0c 4 1
Debug: 512 1726 target.c:2628 target_read_u32(): address: 0x40023c0c, value: 0x00010000
Debug: 513 1726 stm32f2x.c:284 stm32x_wait_status_busy(): status: 0x10000
Debug: 514 1727 hla_target.c:601 adapter_read_memory(): adapter_read_memory 0x40023c0c 4 1
Debug: 515 1729 target.c:2628 target_read_u32(): address: 0x40023c0c, value: 0x00010000
Debug: 516 1729 stm32f2x.c:284 stm32x_wait_status_busy(): status: 0x10000
Debug: 517 1730 hla_target.c:601 adapter_read_memory(): adapter_read_memory 0x40023c0c 4 1
Debug: 518 1731 target.c:2628 target_read_u32(): address: 0x40023c0c, value: 0x00010000
Debug: 519 1731 stm32f2x.c:284 stm32x_wait_status_busy(): status: 0x10000
Debug: 520 1732 hla_target.c:601 adapter_read_memory(): adapter_read_memory 0x40023c0c 4 1
Debug: 521 1736 target.c:2628 target_read_u32(): address: 0x40023c0c, value: 0x00010000
Debug: 522 1736 stm32f2x.c:284 stm32x_wait_status_busy(): status: 0x10000
Debug: 523 1737 hla_target.c:601 adapter_read_memory(): adapter_read_memory 0x40023c0c 4 1
Debug: 524 1739 target.c:2628 target_read_u32(): address: 0x40023c0c, value: 0x00010000
Debug: 525 1739 stm32f2x.c:284 stm32x_wait_status_busy(): status: 0x10000
Debug: 526 1740 hla_target.c:601 adapter_read_memory(): adapter_read_memory 0x40023c0c 4 1
Debug: 527 1742 target.c:2628 target_read_u32(): address: 0x40023c0c, value: 0x00010000
Debug: 528 1742 stm32f2x.c:284 stm32x_wait_status_busy(): status: 0x10000
Debug: 529 1743 hla_target.c:601 adapter_read_memory(): adapter_read_memory 0x40023c0c 4 1
Debug: 530 1746 target.c:2628 target_read_u32(): address: 0x40023c0c, value: 0x00010000
Debug: 531 1746 stm32f2x.c:284 stm32x_wait_status_busy(): status: 0x10000
Debug: 532 1747 hla_target.c:601 adapter_read_memory(): adapter_read_memory 0x40023c0c 4 1
Debug: 533 1748 target.c:2628 target_read_u32(): address: 0x40023c0c, value: 0x00010000
Debug: 534 1748 stm32f2x.c:284 stm32x_wait_status_busy(): status: 0x10000
Debug: 535 1749 hla_target.c:601 adapter_read_memory(): adapter_read_memory 0x40023c0c 4 1
Debug: 536 1751 target.c:2628 target_read_u32(): address: 0x40023c0c, value: 0x00010000
Debug: 537 1751 stm32f2x.c:284 stm32x_wait_status_busy(): status: 0x10000
Debug: 538 1752 hla_target.c:601 adapter_read_memory(): adapter_read_memory 0x40023c0c 4 1
Debug: 539 1754 target.c:2628 target_read_u32(): address: 0x40023c0c, value: 0x00010000
Debug: 540 1754 stm32f2x.c:284 stm32x_wait_status_busy(): status: 0x10000
Debug: 541 1755 hla_target.c:601 adapter_read_memory(): adapter_read_memory 0x40023c0c 4 1
Debug: 542 1757 target.c:2628 target_read_u32(): address: 0x40023c0c, value: 0x00010000
Debug: 543 1757 stm32f2x.c:284 stm32x_wait_status_busy(): status: 0x10000
Debug: 544 1758 hla_target.c:601 adapter_read_memory(): adapter_read_memory 0x40023c0c 4 1
Debug: 545 1759 target.c:2628 target_read_u32(): address: 0x40023c0c, value: 0x00010000
Debug: 546 1759 stm32f2x.c:284 stm32x_wait_status_busy(): status: 0x10000
Debug: 547 1760 hla_target.c:601 adapter_read_memory(): adapter_read_memory 0x40023c0c 4 1
Debug: 548 1762 target.c:2628 target_read_u32(): address: 0x40023c0c, value: 0x00010000
Debug: 549 1762 stm32f2x.c:284 stm32x_wait_status_busy(): status: 0x10000
Debug: 550 1763 hla_target.c:601 adapter_read_memory(): adapter_read_memory 0x40023c0c 4 1
Debug: 551 1765 target.c:2628 target_read_u32(): address: 0x40023c0c, value: 0x00010000
Debug: 552 1765 stm32f2x.c:284 stm32x_wait_status_busy(): status: 0x10000
